T6954 000:345.559   SEGGER J-Link V6.82g Log File
T6954 000:345.752   DLL Compiled: Aug 28 2020 16:57:23
T6954 000:345.763   Logging started @ 2021-07-19 06:19
T6954 000:345.772 - 345.777ms
T6954 000:345.789 JLINK_SetWarnOutHandler(...)
T6954 000:345.801 - 0.017ms
T6954 000:345.814 JLINK_OpenEx(...)
T6954 000:347.118   Firmware: J-Link ARM V8 compiled Nov 28 2014 13:44:46
T6954 000:350.172   Hardware: V8.00
T6954 000:350.190   S/N: 788529158
T6954 000:350.201   OEM: SEGGER
T6954 000:350.212   Feature(s): RDI,FlashDL,FlashBP,JFlash,GDB
T6954 000:351.532   TELNET listener socket opened on port 19021
T6954 000:351.636   WEBSRV Starting webserver
T6954 000:351.781   WEBSRV Webserver running on local port 19080
T6954 000:351.795 - 5.985ms returns "O.K."
T6954 000:351.816 JLINK_SetErrorOutHandler(...)
T6954 000:351.831 - 0.019ms
T6954 000:351.862 JLINK_ExecCommand("ProjectFile = "C:\Users\Cave Canem\Desktop\Eink\nRF5_SDK_16.0.0_98a08e2 -2\examples\ble_eink\eink_0.9.0_check\pca10040\s132\arm5_no_packs\JLinkSettings.ini"", ...). 
T6954 000:367.199   Ref file found at: F:\keil\ARM\Segger\JLinkDevices.ref
T6954 000:367.317   XML referenced by ref file: C:\Program Files (x86)\SEGGER\JLink\JLinkDevices.xml
T6954 000:368.006   C:\Program Files (x86)\SEGGER\JLink\JLinkDevices.xml evaluated successfully.
T6954 000:405.682 - 53.832ms returns 0x00
T6954 000:423.550 JLINK_ExecCommand("Device = nRF52832_xxAA", ...). 
T6954 000:431.903   Device "NRF52832_XXAA" selected.
T6954 000:432.464 - 8.890ms returns 0x00
T6954 000:432.512 JLINK_GetHardwareVersion()
T6954 000:432.528 - 0.022ms returns 80000
T6954 000:432.550 JLINK_GetDLLVersion()
T6954 000:432.565 - 0.023ms returns 68207
T6954 000:432.588 JLINK_GetOEMString(...)
T6954 000:432.644 JLINK_GetFirmwareString(...)
T6954 000:432.658 - 0.018ms
T6954 000:505.030 JLINK_GetDLLVersion()
T6954 000:505.051 - 0.025ms returns 68207
T6954 000:505.062 JLINK_GetCompileDateTime()
T6954 000:505.070 - 0.011ms
T6954 000:510.020 JLINK_GetFirmwareString(...)
T6954 000:510.040 - 0.024ms
T6954 000:519.889 JLINK_GetHardwareVersion()
T6954 000:519.908 - 0.023ms returns 80000
T6954 000:529.284 JLINK_GetSN()
T6954 000:529.305 - 0.025ms returns 788529158
T6954 000:537.110 JLINK_GetOEMString(...)
T6954 000:560.132 JLINK_TIF_Select(JLINKARM_TIF_SWD)
T6954 000:560.877 - 0.761ms returns 0x00
T6954 000:560.905 JLINK_HasError()
T6954 000:560.924 JLINK_SetSpeed(5000)
T6954 000:561.111 - 0.194ms
T6954 000:561.128 JLINK_GetId()
T6954 000:569.021   InitTarget() start
T6954 000:569.060    J-Link Script File: Executing InitTarget()
T6954 000:586.277   InitTarget() end
T6954 000:599.449   Found SW-DP with ID 0x2BA01477
T6954 000:602.762   Old FW that does not support reading DPIDR via DAP jobs
T6954 000:631.266   Unknown DP version. Assuming DPv0
T6954 000:639.803   Scanning AP map to find all available APs
T6954 000:652.592   AP[2]: Stopped AP scan as end of AP map has been reached
T6954 000:661.671   AP[0]: AHB-AP (IDR: 0x24770011)
T6954 000:668.751   AP[1]: JTAG-AP (IDR: 0x02880000)
T6954 000:684.995   Iterating through AP map to find AHB-AP to use
T6954 000:697.253   AP[0]: Core found
T6954 000:708.948   AP[0]: AHB-AP ROM base: 0xE00FF000
T6954 000:718.616   CPUID register: 0x410FC241. Implementer code: 0x41 (ARM)
T6954 000:726.334   Found Cortex-M4 r0p1, Little endian.
T6954 000:828.013   -- Max. mem block: 0x00002408
T6954 000:828.045   CPU_ReadMem(4 bytes @ 0xE000EDF0)
T6954 000:828.765   CPU_WriteMem(4 bytes @ 0xE000EDF0)
T6954 000:829.222   CPU_ReadMem(4 bytes @ 0xE0002000)
T6954 000:840.866   FPUnit: 6 code (BP) slots and 2 literal slots
T6954 000:840.952   CPU_ReadMem(4 bytes @ 0xE000EDFC)
T6954 000:841.442   CPU_WriteMem(4 bytes @ 0xE000EDFC)
T6954 000:841.980   CPU_ReadMem(4 bytes @ 0xE0001000)
T6954 000:842.528   CPU_WriteMem(4 bytes @ 0xE0001000)
T6954 000:843.020   CPU_ReadMem(4 bytes @ 0xE000ED88)
T6954 000:843.508   CPU_WriteMem(4 bytes @ 0xE000ED88)
T6954 000:843.972   CPU_ReadMem(4 bytes @ 0xE000ED88)
T6954 000:844.409   CPU_WriteMem(4 bytes @ 0xE000ED88)
T6954 000:853.442   CoreSight components:
T6954 000:873.421   ROMTbl[0] @ E00FF000
T6954 000:873.466   CPU_ReadMem(64 bytes @ 0xE00FF000)
T6954 000:874.422   CPU_ReadMem(32 bytes @ 0xE000EFE0)
T6954 000:889.293   ROMTbl[0][0]: E000E000, CID: B105E00D, PID: 000BB00C SCS-M7
T6954 000:889.325   CPU_ReadMem(32 bytes @ 0xE0001FE0)
T6954 000:901.555   ROMTbl[0][1]: E0001000, CID: B105E00D, PID: 003BB002 DWT
T6954 000:901.595   CPU_ReadMem(32 bytes @ 0xE0002FE0)
T6954 000:910.973   ROMTbl[0][2]: E0002000, CID: B105E00D, PID: 002BB003 FPB
T6954 000:911.011   CPU_ReadMem(32 bytes @ 0xE0000FE0)
T6954 000:920.694   ROMTbl[0][3]: E0000000, CID: B105E00D, PID: 003BB001 ITM
T6954 000:920.753   CPU_ReadMem(32 bytes @ 0xE0040FE0)
T6954 000:951.782   ROMTbl[0][4]: E0040000, CID: B105900D, PID: 000BB9A1 TPIU
T6954 000:951.814   CPU_ReadMem(32 bytes @ 0xE0041FE0)
T6954 000:961.791   ROMTbl[0][5]: E0041000, CID: B105900D, PID: 000BB925 ETM
T6954 000:962.252 - 401.137ms returns 0x2BA01477
T6954 000:962.280 JLINK_GetDLLVersion()
T6954 000:962.288 - 0.011ms returns 68207
T6954 000:962.299 JLINK_CORE_GetFound()
T6954 000:962.306 - 0.011ms returns 0xE0000FF
T6954 000:962.400 JLINK_GetDebugInfo(0x100 = JLINKARM_ROM_TABLE_ADDR_INDEX)
T6954 000:962.415   Value=0xE00FF000
T6954 000:962.426 - 0.029ms returns 0
T6954 000:977.939 JLINK_GetDebugInfo(0x100 = JLINKARM_ROM_TABLE_ADDR_INDEX)
T6954 000:977.965   Value=0xE00FF000
T6954 000:977.976 - 0.041ms returns 0
T6954 000:977.986 JLINK_GetDebugInfo(0x101 = JLINKARM_DEBUG_INFO_ETM_ADDR_INDEX)
T6954 000:977.994   Value=0xE0041000
T6954 000:978.004 - 0.020ms returns 0
T6954 000:978.012 JLINK_GetDebugInfo(0x102 = JLINKARM_DEBUG_INFO_MTB_ADDR_INDEX)
T6954 000:978.020   Value=0x00000000
T6954 000:978.029 - 0.020ms returns 0
T6954 000:978.038 JLINK_GetDebugInfo(0x103 = JLINKARM_DEBUG_INFO_TPIU_ADDR_INDEX)
T6954 000:978.045   Value=0xE0040000
T6954 000:978.055 - 0.020ms returns 0
T6954 000:978.064 JLINK_GetDebugInfo(0x104 = JLINKARM_DEBUG_INFO_ITM_ADDR_INDEX)
T6954 000:978.071   Value=0xE0000000
T6954 000:978.081 - 0.020ms returns 0
T6954 000:978.090 JLINK_GetDebugInfo(0x105 = JLINKARM_DEBUG_INFO_DWT_ADDR_INDEX)
T6954 000:978.097   Value=0xE0001000
T6954 000:978.107 - 0.020ms returns 0
T6954 000:978.116 JLINK_GetDebugInfo(0x106 = JLINKARM_DEBUG_INFO_FPB_ADDR_INDEX)
T6954 000:978.123   Value=0xE0002000
T6954 000:978.133 - 0.020ms returns 0
T6954 000:978.142 JLINK_GetDebugInfo(0x107 = JLINKARM_DEBUG_INFO_NVIC_ADDR_INDEX)
T6954 000:978.149   Value=0xE000E000
T6954 000:978.159 - 0.020ms returns 0
T6954 000:978.167 JLINK_GetDebugInfo(0x10C = JLINKARM_DEBUG_INFO_DBG_ADDR_INDEX)
T6954 000:978.175   Value=0xE000EDF0
T6954 000:978.185 - 0.020ms returns 0
T6954 000:978.194 JLINK_ReadMemU32(0xE000EF40, 0x1 Items)
T6954 000:978.237   CPU_ReadMem(4 bytes @ 0xE000EF40)
T6954 000:978.670   Data:  21 00 11 10
T6954 000:978.684 - 0.493ms returns 1 (0x1)
T6954 000:978.695 JLINK_ReadMemU32(0xE000EF44, 0x1 Items)
T6954 000:978.706   CPU_ReadMem(4 bytes @ 0xE000EF44)
T6954 000:979.156   Data:  11 00 00 11
T6954 000:979.171 - 0.479ms returns 1 (0x1)
T6954 000:979.182 JLINK_ReadMemU32(0xE000ED00, 0x1 Items)
T6954 000:979.193   CPU_ReadMem(4 bytes @ 0xE000ED00)
T6954 000:979.658   Data:  41 C2 0F 41
T6954 000:979.672   Debug reg: CPUID
T6954 000:979.683 - 0.504ms returns 1 (0x1)
T6954 000:979.694 JLINK_HasError()
T6954 000:979.704 JLINK_SetResetType(JLINKARM_CM3_RESET_TYPE_NORMAL)
T6954 000:979.712 - 0.011ms returns JLINKARM_CM3_RESET_TYPE_NORMAL
T6954 000:979.721 JLINK_Reset()
T6954 000:979.739   CPU is running
T6954 000:979.751   CPU_WriteMem(4 bytes @ 0xE000EDF0)
T6954 000:980.156   CPU is running
T6954 000:980.171   CPU_WriteMem(4 bytes @ 0xE000EDFC)
T6954 000:991.382   Reset: Halt core after reset via DEMCR.VC_CORERESET.
T6954 001:004.674   Reset: Reset device via AIRCR.SYSRESETREQ.
T6954 001:004.714   CPU is running
T6954 001:004.732   CPU_WriteMem(4 bytes @ 0xE000ED0C)
T6954 001:057.332   CPU_ReadMem(4 bytes @ 0xE000EDF0)
T6954 001:057.846   CPU_ReadMem(4 bytes @ 0xE000EDF0)
T6954 001:058.288   CPU is running
T6954 001:058.306   CPU_WriteMem(4 bytes @ 0xE000EDF0)
T6954 001:058.785   CPU is running
T6954 001:058.804   CPU_WriteMem(4 bytes @ 0xE000EDFC)
T6954 001:064.641   CPU_ReadMem(4 bytes @ 0xE000EDF0)
T6954 001:067.680   CPU_WriteMem(4 bytes @ 0xE0002000)
T6954 001:068.186   CPU_ReadMem(4 bytes @ 0xE000EDFC)
T6954 001:068.730   CPU_ReadMem(4 bytes @ 0xE0001000)
T6954 001:069.235 - 89.520ms
T6954 001:069.286 JLINK_Halt()
T6954 001:069.294 - 0.011ms returns 0x00
T6954 001:069.305 JLINK_IsHalted()
T6954 001:069.326 - 0.024ms returns TRUE
T6954 001:069.349 JLINK_ReadMemU32(0xE000EDF0, 0x1 Items)
T6954 001:069.363   CPU_ReadMem(4 bytes @ 0xE000EDF0)
T6954 001:069.765   Data:  03 00 03 00
T6954 001:069.783   Debug reg: DHCSR
T6954 001:069.793 - 0.448ms returns 1 (0x1)
T6954 001:069.808 JLINK_WriteU32_64(0xE000EDF0, 0xA05F0003)
T6954 001:069.823   Debug reg: DHCSR
T6954 001:069.848   CPU_WriteMem(4 bytes @ 0xE000EDF0)
T6954 001:070.258 - 0.457ms returns 0 (0x00000000)
T6954 001:070.275 JLINK_WriteU32_64(0xE000EDFC, 0x01000000)
T6954 001:070.284   Debug reg: DEMCR
T6954 001:070.300   CPU_WriteMem(4 bytes @ 0xE000EDFC)
T6954 001:070.769 - 0.501ms returns 0 (0x00000000)
T6954 001:132.673 JLINK_GetHWStatus(...)
T6954 001:132.951 - 0.286ms returns 0
T6954 001:170.294 JLINK_GetNumBPUnits(Type = 0xFFFFFF00)
T6954 001:170.321 - 0.030ms returns 0x06
T6954 001:170.331 JLINK_GetNumBPUnits(Type = 0xF0)
T6954 001:170.339 - 0.010ms returns 0x2000
T6954 001:170.348 JLINK_GetNumWPUnits()
T6954 001:170.355 - 0.010ms returns 4
T6954 001:207.975 JLINK_GetSpeed()
T6954 001:208.013 - 0.044ms returns 4000
T6954 001:237.616 JLINK_ReadMemU32(0xE000E004, 0x1 Items)
T6954 001:237.681   CPU_ReadMem(4 bytes @ 0xE000E004)
T6954 001:238.077   Data:  01 00 00 00
T6954 001:238.096 - 0.484ms returns 1 (0x1)
T6954 001:238.109 JLINK_ReadMemU32(0xE000E004, 0x1 Items)
T6954 001:238.123   CPU_ReadMem(4 bytes @ 0xE000E004)
T6954 001:238.614   Data:  01 00 00 00
T6954 001:238.629 - 0.523ms returns 1 (0x1)
T6954 001:238.641 JLINK_WriteMem(0xE0001000, 0x1C Bytes, ...)
T6954 001:238.649   Data:  01 00 00 00 00 00 00 00 00 00 00 00 00 00 00 00 ...
T6954 001:238.969   CPU_WriteMem(28 bytes @ 0xE0001000)
T6954 001:239.594 - 0.961ms returns 0x1C
T6954 001:239.610 JLINK_ReadMem(0xE0001000, 0x1C Bytes, ...)
T6954 001:239.622   CPU_ReadMem(28 bytes @ 0xE0001000)
T6954 001:240.216   Data:  01 00 00 40 00 00 00 00 00 00 00 00 00 00 00 00 ...
T6954 001:240.238 - 0.636ms returns 0
T6954 001:240.269 JLINK_Halt()
T6954 001:240.280 - 0.014ms returns 0x00
T6954 001:240.289 JLINK_IsHalted()
T6954 001:240.297 - 0.011ms returns TRUE
T6954 001:251.635 JLINK_WriteMem(0x20000000, 0x6F4 Bytes, ...)
T6954 001:251.653   Data:  00 BE 0A E0 0D 78 2D 06 68 40 08 24 40 00 00 D3 ...
T6954 001:251.972   CPU_WriteMem(1780 bytes @ 0x20000000)
T6954 001:262.817 - 11.200ms returns 0x6F4
T6954 001:262.880 JLINK_HasError()
T6954 001:262.894 JLINK_WriteReg(R0, 0x00000000)
T6954 001:262.915 - 0.025ms returns 0
T6954 001:262.925 JLINK_WriteReg(R1, 0x03D09000)
T6954 001:262.933 - 0.011ms returns 0
T6954 001:262.943 JLINK_WriteReg(R2, 0x00000001)
T6954 001:262.950 - 0.011ms returns 0
T6954 001:262.959 JLINK_WriteReg(R3, 0x00000000)
T6954 001:262.966 - 0.011ms returns 0
T6954 001:262.975 JLINK_WriteReg(R4, 0x00000000)
T6954 001:262.983 - 0.011ms returns 0
T6954 001:262.992 JLINK_WriteReg(R5, 0x00000000)
T6954 001:262.999 - 0.011ms returns 0
T6954 001:263.008 JLINK_WriteReg(R6, 0x00000000)
T6954 001:263.015 - 0.011ms returns 0
T6954 001:263.024 JLINK_WriteReg(R7, 0x00000000)
T6954 001:263.032 - 0.011ms returns 0
T6954 001:263.041 JLINK_WriteReg(R8, 0x00000000)
T6954 001:263.051 - 0.013ms returns 0
T6954 001:263.060 JLINK_WriteReg(R9, 0x200006F0)
T6954 001:263.069 - 0.012ms returns 0
T6954 001:263.078 JLINK_WriteReg(R10, 0x00000000)
T6954 001:263.085 - 0.011ms returns 0
T6954 001:263.094 JLINK_WriteReg(R11, 0x00000000)
T6954 001:263.101 - 0.011ms returns 0
T6954 001:263.110 JLINK_WriteReg(R12, 0x00000000)
T6954 001:263.123 - 0.016ms returns 0
T6954 001:263.132 JLINK_WriteReg(R13 (SP), 0x20002000)
T6954 001:263.140 - 0.012ms returns 0
T6954 001:263.149 JLINK_WriteReg(R14, 0x20000001)
T6954 001:263.156 - 0.011ms returns 0
T6954 001:263.165 JLINK_WriteReg(R15 (PC), 0x20000020)
T6954 001:263.175 - 0.013ms returns 0
T6954 001:263.184 JLINK_WriteReg(XPSR, 0x01000000)
T6954 001:263.192 - 0.011ms returns 0
T6954 001:263.201 JLINK_WriteReg(MSP, 0x20002000)
T6954 001:263.208 - 0.011ms returns 0
T6954 001:263.217 JLINK_WriteReg(PSP, 0x20002000)
T6954 001:263.225 - 0.011ms returns 0
T6954 001:263.234 JLINK_WriteReg(CFBP, 0x00000000)
T6954 001:263.241 - 0.011ms returns 0
T6954 001:263.250 JLINK_SetBPEx(Addr = 0x20000000, Type = 0xFFFFFFF2)
T6954 001:263.263   CPU_ReadMem(2 bytes @ 0x20000000)
T6954 001:263.776 - 0.536ms returns 0x00000001
T6954 001:263.795 JLINK_Go()
T6954 001:263.807   CPU_WriteMem(2 bytes @ 0x20000000)
T6954 001:264.280   CPU_ReadMem(4 bytes @ 0xE0001000)
T6954 001:264.737   CPU_WriteMem(4 bytes @ 0xE0002008)
T6954 001:264.752   CPU_WriteMem(4 bytes @ 0xE000200C)
T6954 001:264.763   CPU_WriteMem(4 bytes @ 0xE0002010)
T6954 001:264.774   CPU_WriteMem(4 bytes @ 0xE0002014)
T6954 001:264.785   CPU_WriteMem(4 bytes @ 0xE0002018)
T6954 001:264.796   CPU_WriteMem(4 bytes @ 0xE000201C)
T6954 001:266.786   CPU_WriteMem(4 bytes @ 0xE0001004)
T6954 001:269.516 - 5.727ms
T6954 001:269.531 JLINK_IsHalted()
T6954 001:271.749   CPU_ReadMem(2 bytes @ 0x20000000)
T6954 001:272.179 - 2.655ms returns TRUE
T6954 001:272.195 JLINK_ReadReg(R15 (PC))
T6954 001:272.205 - 0.014ms returns 0x20000000
T6954 001:272.215 JLINK_ClrBPEx(BPHandle = 0x00000001)
T6954 001:272.223 - 0.012ms returns 0x00
T6954 001:272.233 JLINK_ReadReg(R0)
T6954 001:272.242 - 0.012ms returns 0x00000000
T6954 001:273.802 JLINK_HasError()
T6954 001:273.818 JLINK_WriteReg(R0, 0x00026000)
T6954 001:273.841 - 0.026ms returns 0
T6954 001:273.850 JLINK_WriteReg(R1, 0x00001000)
T6954 001:273.858 - 0.011ms returns 0
T6954 001:273.867 JLINK_WriteReg(R2, 0x000000FF)
T6954 001:273.874 - 0.010ms returns 0
T6954 001:273.883 JLINK_WriteReg(R3, 0x00000000)
T6954 001:273.890 - 0.010ms returns 0
T6954 001:273.898 JLINK_WriteReg(R4, 0x00000000)
T6954 001:273.906 - 0.010ms returns 0
T6954 001:273.933 JLINK_WriteReg(R5, 0x00000000)
T6954 001:273.941 - 0.010ms returns 0
T6954 001:273.950 JLINK_WriteReg(R6, 0x00000000)
T6954 001:273.957 - 0.011ms returns 0
T6954 001:273.966 JLINK_WriteReg(R7, 0x00000000)
T6954 001:273.975 - 0.017ms returns 0
T6954 001:273.992 JLINK_WriteReg(R8, 0x00000000)
T6954 001:274.007 - 0.022ms returns 0
T6954 001:274.024 JLINK_WriteReg(R9, 0x200006F0)
T6954 001:274.039 - 0.021ms returns 0
T6954 001:274.056 JLINK_WriteReg(R10, 0x00000000)
T6954 001:274.065 - 0.013ms returns 0
T6954 001:274.075 JLINK_WriteReg(R11, 0x00000000)
T6954 001:274.083 - 0.011ms returns 0
T6954 001:274.092 JLINK_WriteReg(R12, 0x00000000)
T6954 001:274.099 - 0.011ms returns 0
T6954 001:274.108 JLINK_WriteReg(R13 (SP), 0x20002000)
T6954 001:274.116 - 0.011ms returns 0
T6954 001:274.125 JLINK_WriteReg(R14, 0x20000001)
T6954 001:274.132 - 0.011ms returns 0
T6954 001:274.141 JLINK_WriteReg(R15 (PC), 0x20000344)
T6954 001:274.149 - 0.011ms returns 0
T6954 001:274.158 JLINK_WriteReg(XPSR, 0x01000000)
T6954 001:274.166 - 0.011ms returns 0
T6954 001:274.175 JLINK_WriteReg(MSP, 0x20002000)
T6954 001:274.183 - 0.011ms returns 0
T6954 001:274.192 JLINK_WriteReg(PSP, 0x20002000)
T6954 001:274.199 - 0.011ms returns 0
T6954 001:274.208 JLINK_WriteReg(CFBP, 0x00000000)
T6954 001:274.216 - 0.011ms returns 0
T6954 001:274.225 JLINK_SetBPEx(Addr = 0x20000000, Type = 0xFFFFFFF2)
T6954 001:274.234 - 0.012ms returns 0x00000002
T6954 001:274.244 JLINK_Go()
T6954 001:274.259   CPU_ReadMem(4 bytes @ 0xE0001000)
T6954 001:277.004 - 2.777ms
T6954 001:277.033 JLINK_IsHalted()
T6954 001:279.572   CPU_ReadMem(2 bytes @ 0x20000000)
T6954 001:280.148 - 3.124ms returns TRUE
T6954 001:280.180 JLINK_ReadReg(R15 (PC))
T6954 001:280.250 - 0.077ms returns 0x20000000
T6954 001:280.263 JLINK_ClrBPEx(BPHandle = 0x00000002)
T6954 001:280.272 - 0.012ms returns 0x00
T6954 001:280.281 JLINK_ReadReg(R0)
T6954 001:280.289 - 0.011ms returns 0x00000001
T6954 001:280.299 JLINK_HasError()
T6954 001:280.322 JLINK_WriteReg(R0, 0x00026000)
T6954 001:280.330 - 0.011ms returns 0
T6954 001:280.339 JLINK_WriteReg(R1, 0x00001000)
T6954 001:280.360 - 0.024ms returns 0
T6954 001:280.369 JLINK_WriteReg(R2, 0x000000FF)
T6954 001:280.377 - 0.011ms returns 0
T6954 001:280.386 JLINK_WriteReg(R3, 0x00000000)
T6954 001:280.393 - 0.011ms returns 0
T6954 001:280.402 JLINK_WriteReg(R4, 0x00000000)
T6954 001:280.409 - 0.010ms returns 0
T6954 001:280.418 JLINK_WriteReg(R5, 0x00000000)
T6954 001:280.426 - 0.011ms returns 0
T6954 001:280.435 JLINK_WriteReg(R6, 0x00000000)
T6954 001:280.442 - 0.011ms returns 0
T6954 001:280.451 JLINK_WriteReg(R7, 0x00000000)
T6954 001:280.458 - 0.011ms returns 0
T6954 001:280.467 JLINK_WriteReg(R8, 0x00000000)
T6954 001:280.475 - 0.011ms returns 0
T6954 001:280.484 JLINK_WriteReg(R9, 0x200006F0)
T6954 001:280.491 - 0.010ms returns 0
T6954 001:280.500 JLINK_WriteReg(R10, 0x00000000)
T6954 001:280.507 - 0.011ms returns 0
T6954 001:280.517 JLINK_WriteReg(R11, 0x00000000)
T6954 001:280.536 - 0.025ms returns 0
T6954 001:280.553 JLINK_WriteReg(R12, 0x00000000)
T6954 001:280.565 - 0.015ms returns 0
T6954 001:280.574 JLINK_WriteReg(R13 (SP), 0x20002000)
T6954 001:280.583 - 0.011ms returns 0
T6954 001:280.591 JLINK_WriteReg(R14, 0x20000001)
T6954 001:280.599 - 0.024ms returns 0
T6954 001:280.621 JLINK_WriteReg(R15 (PC), 0x20000188)
T6954 001:280.629 - 0.011ms returns 0
T6954 001:280.637 JLINK_WriteReg(XPSR, 0x01000000)
T6954 001:280.645 - 0.010ms returns 0
T6954 001:280.653 JLINK_WriteReg(MSP, 0x20002000)
T6954 001:280.674 - 0.024ms returns 0
T6954 001:280.683 JLINK_WriteReg(PSP, 0x20002000)
T6954 001:280.691 - 0.011ms returns 0
T6954 001:280.700 JLINK_WriteReg(CFBP, 0x00000000)
T6954 001:280.707 - 0.010ms returns 0
T6954 001:280.716 JLINK_SetBPEx(Addr = 0x20000000, Type = 0xFFFFFFF2)
T6954 001:280.725 - 0.012ms returns 0x00000003
T6954 001:280.734 JLINK_Go()
T6954 001:280.748   CPU_ReadMem(4 bytes @ 0xE0001000)
T6954 001:283.389 - 2.665ms
T6954 001:283.408 JLINK_IsHalted()
T6954 001:283.824 - 0.423ms returns FALSE
T6954 001:283.839 JLINK_HasError()
T6954 001:324.950 JLINK_IsHalted()
T6954 001:327.594   CPU_ReadMem(2 bytes @ 0x20000000)
T6954 001:328.159 - 3.217ms returns TRUE
T6954 001:328.177 JLINK_ReadReg(R15 (PC))
T6954 001:328.187 - 0.014ms returns 0x20000000
T6954 001:328.197 JLINK_ClrBPEx(BPHandle = 0x00000003)
T6954 001:328.205 - 0.011ms returns 0x00
T6954 001:328.233 JLINK_ReadReg(R0)
T6954 001:328.241 - 0.011ms returns 0x00000000
T6954 001:331.344 JLINK_HasError()
T6954 001:331.404 JLINK_WriteReg(R0, 0x00027000)
T6954 001:331.433 - 0.048ms returns 0
T6954 001:331.473 JLINK_WriteReg(R1, 0x00001000)
T6954 001:331.496 - 0.041ms returns 0
T6954 001:331.521 JLINK_WriteReg(R2, 0x000000FF)
T6954 001:331.544 - 0.041ms returns 0
T6954 001:331.583 JLINK_WriteReg(R3, 0x00000000)
T6954 001:331.593 - 0.015ms returns 0
T6954 001:331.605 JLINK_WriteReg(R4, 0x00000000)
T6954 001:331.615 - 0.015ms returns 0
T6954 001:331.640 JLINK_WriteReg(R5, 0x00000000)
T6954 001:331.663 - 0.028ms returns 0
T6954 001:331.675 JLINK_WriteReg(R6, 0x00000000)
T6954 001:331.685 - 0.014ms returns 0
T6954 001:331.697 JLINK_WriteReg(R7, 0x00000000)
T6954 001:331.707 - 0.015ms returns 0
T6954 001:331.719 JLINK_WriteReg(R8, 0x00000000)
T6954 001:331.729 - 0.015ms returns 0
T6954 001:331.741 JLINK_WriteReg(R9, 0x200006F0)
T6954 001:331.751 - 0.015ms returns 0
T6954 001:331.762 JLINK_WriteReg(R10, 0x00000000)
T6954 001:331.773 - 0.015ms returns 0
T6954 001:331.785 JLINK_WriteReg(R11, 0x00000000)
T6954 001:331.795 - 0.015ms returns 0
T6954 001:331.807 JLINK_WriteReg(R12, 0x00000000)
T6954 001:331.817 - 0.014ms returns 0
T6954 001:331.828 JLINK_WriteReg(R13 (SP), 0x20002000)
T6954 001:331.913 - 0.094ms returns 0
T6954 001:331.930 JLINK_WriteReg(R14, 0x20000001)
T6954 001:331.941 - 0.015ms returns 0
T6954 001:331.953 JLINK_WriteReg(R15 (PC), 0x20000344)
T6954 001:331.963 - 0.015ms returns 0
T6954 001:331.988 JLINK_WriteReg(XPSR, 0x01000000)
T6954 001:331.998 - 0.014ms returns 0
T6954 001:332.024 JLINK_WriteReg(MSP, 0x20002000)
T6954 001:332.034 - 0.015ms returns 0
T6954 001:332.046 JLINK_WriteReg(PSP, 0x20002000)
T6954 001:332.056 - 0.015ms returns 0
T6954 001:332.068 JLINK_WriteReg(CFBP, 0x00000000)
T6954 001:332.078 - 0.015ms returns 0
T6954 001:332.090 JLINK_SetBPEx(Addr = 0x20000000, Type = 0xFFFFFFF2)
T6954 001:332.102 - 0.017ms returns 0x00000004
T6954 001:332.128 JLINK_Go()
T6954 001:332.164   CPU_ReadMem(4 bytes @ 0xE0001000)
T6954 001:334.996 - 2.885ms
T6954 001:335.026 JLINK_IsHalted()
T6954 001:337.326   CPU_ReadMem(2 bytes @ 0x20000000)
T6954 001:337.782 - 2.767ms returns TRUE
T6954 001:337.804 JLINK_ReadReg(R15 (PC))
T6954 001:337.815 - 0.015ms returns 0x20000000
T6954 001:337.826 JLINK_ClrBPEx(BPHandle = 0x00000004)
T6954 001:337.835 - 0.013ms returns 0x00
T6954 001:337.845 JLINK_ReadReg(R0)
T6954 001:337.854 - 0.012ms returns 0x00000001
T6954 001:337.865 JLINK_HasError()
T6954 001:337.877 JLINK_WriteReg(R0, 0x00027000)
T6954 001:337.886 - 0.012ms returns 0
T6954 001:337.896 JLINK_WriteReg(R1, 0x00001000)
T6954 001:337.904 - 0.012ms returns 0
T6954 001:337.914 JLINK_WriteReg(R2, 0x000000FF)
T6954 001:337.922 - 0.012ms returns 0
T6954 001:337.932 JLINK_WriteReg(R3, 0x00000000)
T6954 001:337.940 - 0.012ms returns 0
T6954 001:337.950 JLINK_WriteReg(R4, 0x00000000)
T6954 001:337.958 - 0.012ms returns 0
T6954 001:337.968 JLINK_WriteReg(R5, 0x00000000)
T6954 001:337.976 - 0.011ms returns 0
T6954 001:337.986 JLINK_WriteReg(R6, 0x00000000)
T6954 001:337.994 - 0.012ms returns 0
T6954 001:338.003 JLINK_WriteReg(R7, 0x00000000)
T6954 001:338.011 - 0.012ms returns 0
T6954 001:338.021 JLINK_WriteReg(R8, 0x00000000)
T6954 001:338.029 - 0.012ms returns 0
T6954 001:338.038 JLINK_WriteReg(R9, 0x200006F0)
T6954 001:338.046 - 0.011ms returns 0
T6954 001:338.056 JLINK_WriteReg(R10, 0x00000000)
T6954 001:338.064 - 0.011ms returns 0
T6954 001:338.073 JLINK_WriteReg(R11, 0x00000000)
T6954 001:338.081 - 0.011ms returns 0
T6954 001:338.090 JLINK_WriteReg(R12, 0x00000000)
T6954 001:338.098 - 0.011ms returns 0
T6954 001:338.107 JLINK_WriteReg(R13 (SP), 0x20002000)
T6954 001:338.115 - 0.011ms returns 0
T6954 001:338.124 JLINK_WriteReg(R14, 0x20000001)
T6954 001:338.132 - 0.011ms returns 0
T6954 001:338.142 JLINK_WriteReg(R15 (PC), 0x20000188)
T6954 001:338.149 - 0.011ms returns 0
T6954 001:338.159 JLINK_WriteReg(XPSR, 0x01000000)
T6954 001:338.167 - 0.012ms returns 0
T6954 001:338.176 JLINK_WriteReg(MSP, 0x20002000)
T6954 001:338.184 - 0.011ms returns 0
T6954 001:338.193 JLINK_WriteReg(PSP, 0x20002000)
T6954 001:338.201 - 0.011ms returns 0
T6954 001:338.210 JLINK_WriteReg(CFBP, 0x00000000)
T6954 001:338.218 - 0.011ms returns 0
T6954 001:338.228 JLINK_SetBPEx(Addr = 0x20000000, Type = 0xFFFFFFF2)
T6954 001:338.236 - 0.012ms returns 0x00000005
T6954 001:338.246 JLINK_Go()
T6954 001:338.260   CPU_ReadMem(4 bytes @ 0xE0001000)
T6954 001:340.897 - 2.663ms
T6954 001:340.925 JLINK_IsHalted()
T6954 001:341.283 - 0.367ms returns FALSE
T6954 001:341.303 JLINK_HasError()
T6954 001:342.870 JLINK_IsHalted()
T6954 001:345.317   CPU_ReadMem(2 bytes @ 0x20000000)
T6954 001:345.832 - 2.969ms returns TRUE
T6954 001:345.850 JLINK_ReadReg(R15 (PC))
T6954 001:345.874 - 0.028ms returns 0x20000000
T6954 001:345.884 JLINK_ClrBPEx(BPHandle = 0x00000005)
T6954 001:345.892 - 0.011ms returns 0x00
T6954 001:345.902 JLINK_ReadReg(R0)
T6954 001:345.909 - 0.011ms returns 0x00000000
T6954 001:346.547 JLINK_HasError()
T6954 001:346.561 JLINK_WriteReg(R0, 0x00028000)
T6954 001:346.571 - 0.013ms returns 0
T6954 001:346.580 JLINK_WriteReg(R1, 0x00001000)
T6954 001:346.588 - 0.011ms returns 0
T6954 001:346.597 JLINK_WriteReg(R2, 0x000000FF)
T6954 001:346.604 - 0.014ms returns 0
T6954 001:346.618 JLINK_WriteReg(R3, 0x00000000)
T6954 001:346.626 - 0.011ms returns 0
T6954 001:346.635 JLINK_WriteReg(R4, 0x00000000)
T6954 001:346.642 - 0.024ms returns 0
T6954 001:346.665 JLINK_WriteReg(R5, 0x00000000)
T6954 001:346.672 - 0.011ms returns 0
T6954 001:346.681 JLINK_WriteReg(R6, 0x00000000)
T6954 001:346.689 - 0.011ms returns 0
T6954 001:346.697 JLINK_WriteReg(R7, 0x00000000)
T6954 001:346.705 - 0.011ms returns 0
T6954 001:346.714 JLINK_WriteReg(R8, 0x00000000)
T6954 001:346.721 - 0.011ms returns 0
T6954 001:346.730 JLINK_WriteReg(R9, 0x200006F0)
T6954 001:346.738 - 0.010ms returns 0
T6954 001:346.746 JLINK_WriteReg(R10, 0x00000000)
T6954 001:346.754 - 0.011ms returns 0
T6954 001:346.763 JLINK_WriteReg(R11, 0x00000000)
T6954 001:346.770 - 0.011ms returns 0
T6954 001:346.779 JLINK_WriteReg(R12, 0x00000000)
T6954 001:346.787 - 0.011ms returns 0
T6954 001:346.795 JLINK_WriteReg(R13 (SP), 0x20002000)
T6954 001:346.803 - 0.011ms returns 0
T6954 001:346.812 JLINK_WriteReg(R14, 0x20000001)
T6954 001:346.820 - 0.011ms returns 0
T6954 001:346.829 JLINK_WriteReg(R15 (PC), 0x20000344)
T6954 001:346.836 - 0.012ms returns 0
T6954 001:346.847 JLINK_WriteReg(XPSR, 0x01000000)
T6954 001:346.855 - 0.011ms returns 0
T6954 001:346.864 JLINK_WriteReg(MSP, 0x20002000)
T6954 001:346.871 - 0.011ms returns 0
T6954 001:346.880 JLINK_WriteReg(PSP, 0x20002000)
T6954 001:346.901 - 0.024ms returns 0
T6954 001:346.910 JLINK_WriteReg(CFBP, 0x00000000)
T6954 001:346.917 - 0.010ms returns 0
T6954 001:346.926 JLINK_SetBPEx(Addr = 0x20000000, Type = 0xFFFFFFF2)
T6954 001:346.934 - 0.012ms returns 0x00000006
T6954 001:346.943 JLINK_Go()
T6954 001:346.957   CPU_ReadMem(4 bytes @ 0xE0001000)
T6954 001:349.805 - 2.872ms
T6954 001:349.824 JLINK_IsHalted()
T6954 001:352.229   CPU_ReadMem(2 bytes @ 0x20000000)
T6954 001:352.760 - 2.943ms returns TRUE
T6954 001:352.776 JLINK_ReadReg(R15 (PC))
T6954 001:352.786 - 0.013ms returns 0x20000000
T6954 001:352.795 JLINK_ClrBPEx(BPHandle = 0x00000006)
T6954 001:352.804 - 0.011ms returns 0x00
T6954 001:352.813 JLINK_ReadReg(R0)
T6954 001:352.821 - 0.012ms returns 0x00000001
T6954 001:352.853 JLINK_HasError()
T6954 001:352.869 JLINK_WriteReg(R0, 0x00028000)
T6954 001:352.882 - 0.017ms returns 0
T6954 001:352.900 JLINK_WriteReg(R1, 0x00001000)
T6954 001:352.915 - 0.020ms returns 0
T6954 001:352.928 JLINK_WriteReg(R2, 0x000000FF)
T6954 001:352.939 - 0.017ms returns 0
T6954 001:352.953 JLINK_WriteReg(R3, 0x00000000)
T6954 001:352.973 - 0.028ms returns 0
T6954 001:352.994 JLINK_WriteReg(R4, 0x00000000)
T6954 001:353.004 - 0.013ms returns 0
T6954 001:353.013 JLINK_WriteReg(R5, 0x00000000)
T6954 001:353.021 - 0.011ms returns 0
T6954 001:353.030 JLINK_WriteReg(R6, 0x00000000)
T6954 001:353.037 - 0.011ms returns 0
T6954 001:353.047 JLINK_WriteReg(R7, 0x00000000)
T6954 001:353.058 - 0.014ms returns 0
T6954 001:353.067 JLINK_WriteReg(R8, 0x00000000)
T6954 001:353.074 - 0.011ms returns 0
T6954 001:353.083 JLINK_WriteReg(R9, 0x200006F0)
T6954 001:353.091 - 0.011ms returns 0
T6954 001:353.100 JLINK_WriteReg(R10, 0x00000000)
T6954 001:353.107 - 0.011ms returns 0
T6954 001:353.116 JLINK_WriteReg(R11, 0x00000000)
T6954 001:353.124 - 0.011ms returns 0
T6954 001:353.133 JLINK_WriteReg(R12, 0x00000000)
T6954 001:353.140 - 0.011ms returns 0
T6954 001:353.149 JLINK_WriteReg(R13 (SP), 0x20002000)
T6954 001:353.157 - 0.011ms returns 0
T6954 001:353.166 JLINK_WriteReg(R14, 0x20000001)
T6954 001:353.173 - 0.011ms returns 0
T6954 001:353.182 JLINK_WriteReg(R15 (PC), 0x20000188)
T6954 001:353.190 - 0.011ms returns 0
T6954 001:353.198 JLINK_WriteReg(XPSR, 0x01000000)
T6954 001:353.206 - 0.011ms returns 0
T6954 001:353.215 JLINK_WriteReg(MSP, 0x20002000)
T6954 001:353.222 - 0.011ms returns 0
T6954 001:353.231 JLINK_WriteReg(PSP, 0x20002000)
T6954 001:353.239 - 0.011ms returns 0
T6954 001:353.248 JLINK_WriteReg(CFBP, 0x00000000)
T6954 001:353.255 - 0.011ms returns 0
T6954 001:353.264 JLINK_SetBPEx(Addr = 0x20000000, Type = 0xFFFFFFF2)
T6954 001:353.277 - 0.019ms returns 0x00000007
T6954 001:353.289 JLINK_Go()
T6954 001:353.303   CPU_ReadMem(4 bytes @ 0xE0001000)
T6954 001:356.024 - 2.759ms
T6954 001:356.057 JLINK_IsHalted()
T6954 001:356.427 - 0.377ms returns FALSE
T6954 001:356.444 JLINK_HasError()
T6954 001:357.828 JLINK_IsHalted()
T6954 001:360.156   CPU_ReadMem(2 bytes @ 0x20000000)
T6954 001:360.654 - 2.836ms returns TRUE
T6954 001:360.673 JLINK_ReadReg(R15 (PC))
T6954 001:360.698 - 0.028ms returns 0x20000000
T6954 001:360.708 JLINK_ClrBPEx(BPHandle = 0x00000007)
T6954 001:360.716 - 0.011ms returns 0x00
T6954 001:360.725 JLINK_ReadReg(R0)
T6954 001:360.733 - 0.011ms returns 0x00000000
T6954 001:361.364 JLINK_HasError()
T6954 001:361.377 JLINK_WriteReg(R0, 0x00029000)
T6954 001:361.387 - 0.013ms returns 0
T6954 001:361.396 JLINK_WriteReg(R1, 0x00001000)
T6954 001:361.404 - 0.011ms returns 0
T6954 001:361.413 JLINK_WriteReg(R2, 0x000000FF)
T6954 001:361.420 - 0.010ms returns 0
T6954 001:361.428 JLINK_WriteReg(R3, 0x00000000)
T6954 001:361.436 - 0.010ms returns 0
T6954 001:361.444 JLINK_WriteReg(R4, 0x00000000)
T6954 001:361.452 - 0.010ms returns 0
T6954 001:361.460 JLINK_WriteReg(R5, 0x00000000)
T6954 001:361.467 - 0.010ms returns 0
T6954 001:361.476 JLINK_WriteReg(R6, 0x00000000)
T6954 001:361.483 - 0.010ms returns 0
T6954 001:361.492 JLINK_WriteReg(R7, 0x00000000)
T6954 001:361.499 - 0.010ms returns 0
T6954 001:361.508 JLINK_WriteReg(R8, 0x00000000)
T6954 001:361.515 - 0.010ms returns 0
T6954 001:361.523 JLINK_WriteReg(R9, 0x200006F0)
T6954 001:361.531 - 0.010ms returns 0
T6954 001:361.539 JLINK_WriteReg(R10, 0x00000000)
T6954 001:361.547 - 0.010ms returns 0
T6954 001:361.555 JLINK_WriteReg(R11, 0x00000000)
T6954 001:361.562 - 0.010ms returns 0
T6954 001:361.571 JLINK_WriteReg(R12, 0x00000000)
T6954 001:361.578 - 0.010ms returns 0
T6954 001:361.587 JLINK_WriteReg(R13 (SP), 0x20002000)
T6954 001:361.608 - 0.025ms returns 0
T6954 001:361.617 JLINK_WriteReg(R14, 0x20000001)
T6954 001:361.625 - 0.011ms returns 0
T6954 001:361.634 JLINK_WriteReg(R15 (PC), 0x20000344)
T6954 001:361.641 - 0.011ms returns 0
T6954 001:361.650 JLINK_WriteReg(XPSR, 0x01000000)
T6954 001:361.658 - 0.011ms returns 0
T6954 001:361.666 JLINK_WriteReg(MSP, 0x20002000)
T6954 001:361.674 - 0.011ms returns 0
T6954 001:361.683 JLINK_WriteReg(PSP, 0x20002000)
T6954 001:361.690 - 0.010ms returns 0
T6954 001:361.699 JLINK_WriteReg(CFBP, 0x00000000)
T6954 001:361.706 - 0.010ms returns 0
T6954 001:361.715 JLINK_SetBPEx(Addr = 0x20000000, Type = 0xFFFFFFF2)
T6954 001:361.724 - 0.012ms returns 0x00000008
T6954 001:361.733 JLINK_Go()
T6954 001:361.747   CPU_ReadMem(4 bytes @ 0xE0001000)
T6954 001:364.519 - 2.795ms
T6954 001:364.536 JLINK_IsHalted()
T6954 001:366.890   CPU_ReadMem(2 bytes @ 0x20000000)
T6954 001:367.316 - 2.786ms returns TRUE
T6954 001:367.334 JLINK_ReadReg(R15 (PC))
T6954 001:367.344 - 0.014ms returns 0x20000000
T6954 001:367.354 JLINK_ClrBPEx(BPHandle = 0x00000008)
T6954 001:367.362 - 0.011ms returns 0x00
T6954 001:367.372 JLINK_ReadReg(R0)
T6954 001:367.380 - 0.011ms returns 0x00000001
T6954 001:367.391 JLINK_HasError()
T6954 001:367.912 JLINK_WriteReg(R0, 0x00029000)
T6954 001:367.931 - 0.024ms returns 0
T6954 001:367.945 JLINK_WriteReg(R1, 0x00001000)
T6954 001:367.957 - 0.017ms returns 0
T6954 001:367.971 JLINK_WriteReg(R2, 0x000000FF)
T6954 001:367.983 - 0.017ms returns 0
T6954 001:367.997 JLINK_WriteReg(R3, 0x00000000)
T6954 001:368.009 - 0.017ms returns 0
T6954 001:368.039 JLINK_WriteReg(R4, 0x00000000)
T6954 001:368.054 - 0.019ms returns 0
T6954 001:368.067 JLINK_WriteReg(R5, 0x00000000)
T6954 001:368.079 - 0.017ms returns 0
T6954 001:368.092 JLINK_WriteReg(R6, 0x00000000)
T6954 001:368.109 - 0.021ms returns 0
T6954 001:368.122 JLINK_WriteReg(R7, 0x00000000)
T6954 001:368.134 - 0.017ms returns 0
T6954 001:368.167 JLINK_WriteReg(R8, 0x00000000)
T6954 001:368.179 - 0.018ms returns 0
T6954 001:368.194 JLINK_WriteReg(R9, 0x200006F0)
T6954 001:368.205 - 0.017ms returns 0
T6954 001:368.224 JLINK_WriteReg(R10, 0x00000000)
T6954 001:368.244 - 0.026ms returns 0
T6954 001:368.258 JLINK_WriteReg(R11, 0x00000000)
T6954 001:368.271 - 0.018ms returns 0
T6954 001:368.285 JLINK_WriteReg(R12, 0x00000000)
T6954 001:368.296 - 0.017ms returns 0
T6954 001:368.310 JLINK_WriteReg(R13 (SP), 0x20002000)
T6954 001:368.323 - 0.019ms returns 0
T6954 001:368.337 JLINK_WriteReg(R14, 0x20000001)
T6954 001:368.350 - 0.019ms returns 0
T6954 001:368.365 JLINK_WriteReg(R15 (PC), 0x20000188)
T6954 001:368.379 - 0.018ms returns 0
T6954 001:368.393 JLINK_WriteReg(XPSR, 0x01000000)
T6954 001:368.405 - 0.017ms returns 0
T6954 001:368.418 JLINK_WriteReg(MSP, 0x20002000)
T6954 001:368.430 - 0.018ms returns 0
T6954 001:368.444 JLINK_WriteReg(PSP, 0x20002000)
T6954 001:368.457 - 0.018ms returns 0
T6954 001:368.471 JLINK_WriteReg(CFBP, 0x00000000)
T6954 001:368.483 - 0.018ms returns 0
T6954 001:368.498 JLINK_SetBPEx(Addr = 0x20000000, Type = 0xFFFFFFF2)
T6954 001:368.512 - 0.020ms returns 0x00000009
T6954 001:368.527 JLINK_Go()
T6954 001:368.549   CPU_ReadMem(4 bytes @ 0xE0001000)
T6954 001:371.266 - 2.751ms
T6954 001:371.287 JLINK_IsHalted()
T6954 001:371.741 - 0.461ms returns FALSE
T6954 001:371.757 JLINK_HasError()
T6954 001:373.792 JLINK_IsHalted()
T6954 001:376.322   CPU_ReadMem(2 bytes @ 0x20000000)
T6954 001:376.817 - 3.036ms returns TRUE
T6954 001:376.843 JLINK_ReadReg(R15 (PC))
T6954 001:376.861 - 0.023ms returns 0x20000000
T6954 001:376.875 JLINK_ClrBPEx(BPHandle = 0x00000009)
T6954 001:376.887 - 0.016ms returns 0x00
T6954 001:376.899 JLINK_ReadReg(R0)
T6954 001:376.917 - 0.027ms returns 0x00000000
T6954 001:378.334 JLINK_HasError()
T6954 001:378.354 JLINK_WriteReg(R0, 0x0002A000)
T6954 001:378.365 - 0.015ms returns 0
T6954 001:378.375 JLINK_WriteReg(R1, 0x00001000)
T6954 001:378.383 - 0.011ms returns 0
T6954 001:378.392 JLINK_WriteReg(R2, 0x000000FF)
T6954 001:378.400 - 0.011ms returns 0
T6954 001:378.409 JLINK_WriteReg(R3, 0x00000000)
T6954 001:378.416 - 0.011ms returns 0
T6954 001:378.425 JLINK_WriteReg(R4, 0x00000000)
T6954 001:378.433 - 0.011ms returns 0
T6954 001:378.442 JLINK_WriteReg(R5, 0x00000000)
T6954 001:378.449 - 0.011ms returns 0
T6954 001:378.458 JLINK_WriteReg(R6, 0x00000000)
T6954 001:378.465 - 0.011ms returns 0
T6954 001:378.474 JLINK_WriteReg(R7, 0x00000000)
T6954 001:378.482 - 0.011ms returns 0
T6954 001:378.490 JLINK_WriteReg(R8, 0x00000000)
T6954 001:378.498 - 0.011ms returns 0
T6954 001:378.507 JLINK_WriteReg(R9, 0x200006F0)
T6954 001:378.514 - 0.011ms returns 0
T6954 001:378.523 JLINK_WriteReg(R10, 0x00000000)
T6954 001:378.531 - 0.011ms returns 0
T6954 001:378.539 JLINK_WriteReg(R11, 0x00000000)
T6954 001:378.547 - 0.011ms returns 0
T6954 001:378.556 JLINK_WriteReg(R12, 0x00000000)
T6954 001:378.563 - 0.011ms returns 0
T6954 001:378.572 JLINK_WriteReg(R13 (SP), 0x20002000)
T6954 001:378.580 - 0.011ms returns 0
T6954 001:378.589 JLINK_WriteReg(R14, 0x20000001)
T6954 001:378.596 - 0.011ms returns 0
T6954 001:378.605 JLINK_WriteReg(R15 (PC), 0x20000344)
T6954 001:378.613 - 0.011ms returns 0
T6954 001:378.622 JLINK_WriteReg(XPSR, 0x01000000)
T6954 001:378.629 - 0.011ms returns 0
T6954 001:378.638 JLINK_WriteReg(MSP, 0x20002000)
T6954 001:378.646 - 0.011ms returns 0
T6954 001:378.655 JLINK_WriteReg(PSP, 0x20002000)
T6954 001:378.662 - 0.011ms returns 0
T6954 001:378.671 JLINK_WriteReg(CFBP, 0x00000000)
T6954 001:378.678 - 0.011ms returns 0
T6954 001:378.688 JLINK_SetBPEx(Addr = 0x20000000, Type = 0xFFFFFFF2)
T6954 001:378.697 - 0.012ms returns 0x0000000A
T6954 001:378.706 JLINK_Go()
T6954 001:378.722   CPU_ReadMem(4 bytes @ 0xE0001000)
T6954 001:381.327 - 2.636ms
T6954 001:381.351 JLINK_IsHalted()
T6954 001:383.727   CPU_ReadMem(2 bytes @ 0x20000000)
T6954 001:384.187 - 2.845ms returns TRUE
T6954 001:384.206 JLINK_ReadReg(R15 (PC))
T6954 001:384.219 - 0.016ms returns 0x20000000
T6954 001:384.229 JLINK_ClrBPEx(BPHandle = 0x0000000A)
T6954 001:384.237 - 0.025ms returns 0x00
T6954 001:384.260 JLINK_ReadReg(R0)
T6954 001:384.291 - 0.036ms returns 0x00000001
T6954 001:384.303 JLINK_HasError()
T6954 001:384.313 JLINK_WriteReg(R0, 0x0002A000)
T6954 001:384.321 - 0.012ms returns 0
T6954 001:384.330 JLINK_WriteReg(R1, 0x00001000)
T6954 001:384.338 - 0.011ms returns 0
T6954 001:384.347 JLINK_WriteReg(R2, 0x000000FF)
T6954 001:384.354 - 0.010ms returns 0
T6954 001:384.363 JLINK_WriteReg(R3, 0x00000000)
T6954 001:384.370 - 0.010ms returns 0
T6954 001:384.379 JLINK_WriteReg(R4, 0x00000000)
T6954 001:384.387 - 0.010ms returns 0
T6954 001:384.395 JLINK_WriteReg(R5, 0x00000000)
T6954 001:384.403 - 0.010ms returns 0
T6954 001:384.412 JLINK_WriteReg(R6, 0x00000000)
T6954 001:384.419 - 0.010ms returns 0
T6954 001:384.428 JLINK_WriteReg(R7, 0x00000000)
T6954 001:384.435 - 0.011ms returns 0
T6954 001:384.444 JLINK_WriteReg(R8, 0x00000000)
T6954 001:384.451 - 0.011ms returns 0
T6954 001:384.460 JLINK_WriteReg(R9, 0x200006F0)
T6954 001:384.468 - 0.011ms returns 0
T6954 001:384.477 JLINK_WriteReg(R10, 0x00000000)
T6954 001:384.484 - 0.011ms returns 0
T6954 001:384.493 JLINK_WriteReg(R11, 0x00000000)
T6954 001:384.500 - 0.011ms returns 0
T6954 001:384.509 JLINK_WriteReg(R12, 0x00000000)
T6954 001:384.517 - 0.010ms returns 0
T6954 001:384.525 JLINK_WriteReg(R13 (SP), 0x20002000)
T6954 001:384.533 - 0.011ms returns 0
T6954 001:384.542 JLINK_WriteReg(R14, 0x20000001)
T6954 001:384.549 - 0.011ms returns 0
T6954 001:384.558 JLINK_WriteReg(R15 (PC), 0x20000188)
T6954 001:384.566 - 0.011ms returns 0
T6954 001:384.574 JLINK_WriteReg(XPSR, 0x01000000)
T6954 001:384.582 - 0.011ms returns 0
T6954 001:384.591 JLINK_WriteReg(MSP, 0x20002000)
T6954 001:384.598 - 0.010ms returns 0
T6954 001:384.607 JLINK_WriteReg(PSP, 0x20002000)
T6954 001:384.614 - 0.010ms returns 0
T6954 001:384.623 JLINK_WriteReg(CFBP, 0x00000000)
T6954 001:384.631 - 0.011ms returns 0
T6954 001:384.640 JLINK_SetBPEx(Addr = 0x20000000, Type = 0xFFFFFFF2)
T6954 001:384.648 - 0.012ms returns 0x0000000B
T6954 001:384.659 JLINK_Go()
T6954 001:384.673   CPU_ReadMem(4 bytes @ 0xE0001000)
T6954 001:387.284 - 2.636ms
T6954 001:387.305 JLINK_IsHalted()
T6954 001:387.723 - 0.430ms returns FALSE
T6954 001:387.750 JLINK_HasError()
T6954 001:389.741 JLINK_IsHalted()
T6954 001:392.073   CPU_ReadMem(2 bytes @ 0x20000000)
T6954 001:392.629 - 2.899ms returns TRUE
T6954 001:392.650 JLINK_ReadReg(R15 (PC))
T6954 001:392.662 - 0.015ms returns 0x20000000
T6954 001:392.672 JLINK_ClrBPEx(BPHandle = 0x0000000B)
T6954 001:392.680 - 0.011ms returns 0x00
T6954 001:392.689 JLINK_ReadReg(R0)
T6954 001:392.697 - 0.011ms returns 0x00000000
T6954 001:395.158 JLINK_HasError()
T6954 001:395.190 JLINK_WriteReg(R0, 0x0002B000)
T6954 001:395.207 - 0.022ms returns 0
T6954 001:395.223 JLINK_WriteReg(R1, 0x00001000)
T6954 001:395.244 - 0.030ms returns 0
T6954 001:395.263 JLINK_WriteReg(R2, 0x000000FF)
T6954 001:395.277 - 0.020ms returns 0
T6954 001:395.296 JLINK_WriteReg(R3, 0x00000000)
T6954 001:395.313 - 0.022ms returns 0
T6954 001:395.327 JLINK_WriteReg(R4, 0x00000000)
T6954 001:395.345 - 0.024ms returns 0
T6954 001:395.361 JLINK_WriteReg(R5, 0x00000000)
T6954 001:395.374 - 0.018ms returns 0
T6954 001:395.389 JLINK_WriteReg(R6, 0x00000000)
T6954 001:395.404 - 0.024ms returns 0
T6954 001:395.424 JLINK_WriteReg(R7, 0x00000000)
T6954 001:395.440 - 0.021ms returns 0
T6954 001:395.460 JLINK_WriteReg(R8, 0x00000000)
T6954 001:395.475 - 0.021ms returns 0
T6954 001:395.489 JLINK_WriteReg(R9, 0x200006F0)
T6954 001:395.503 - 0.019ms returns 0
T6954 001:395.516 JLINK_WriteReg(R10, 0x00000000)
T6954 001:395.528 - 0.018ms returns 0
T6954 001:395.544 JLINK_WriteReg(R11, 0x00000000)
T6954 001:395.566 - 0.031ms returns 0
T6954 001:395.586 JLINK_WriteReg(R12, 0x00000000)
T6954 001:395.601 - 0.020ms returns 0
T6954 001:395.615 JLINK_WriteReg(R13 (SP), 0x20002000)
T6954 001:395.629 - 0.018ms returns 0
T6954 001:395.642 JLINK_WriteReg(R14, 0x20000001)
T6954 001:395.656 - 0.019ms returns 0
T6954 001:395.670 JLINK_WriteReg(R15 (PC), 0x20000344)
T6954 001:395.682 - 0.021ms returns 0
T6954 001:395.707 JLINK_WriteReg(XPSR, 0x01000000)
T6954 001:395.726 - 0.025ms returns 0
T6954 001:395.740 JLINK_WriteReg(MSP, 0x20002000)
T6954 001:395.757 - 0.023ms returns 0
T6954 001:395.773 JLINK_WriteReg(PSP, 0x20002000)
T6954 001:395.786 - 0.019ms returns 0
T6954 001:395.802 JLINK_WriteReg(CFBP, 0x00000000)
T6954 001:395.819 - 0.026ms returns 0
T6954 001:395.836 JLINK_SetBPEx(Addr = 0x20000000, Type = 0xFFFFFFF2)
T6954 001:395.856 - 0.027ms returns 0x0000000C
T6954 001:395.872 JLINK_Go()
T6954 001:395.896   CPU_ReadMem(4 bytes @ 0xE0001000)
T6954 001:398.639 - 2.801ms
T6954 001:398.704 JLINK_IsHalted()
T6954 001:401.214   CPU_ReadMem(2 bytes @ 0x20000000)
T6954 001:401.669 - 2.978ms returns TRUE
T6954 001:401.698 JLINK_ReadReg(R15 (PC))
T6954 001:401.716 - 0.023ms returns 0x20000000
T6954 001:401.731 JLINK_ClrBPEx(BPHandle = 0x0000000C)
T6954 001:401.744 - 0.017ms returns 0x00
T6954 001:401.757 JLINK_ReadReg(R0)
T6954 001:401.768 - 0.017ms returns 0x00000001
T6954 001:401.783 JLINK_HasError()
T6954 001:401.797 JLINK_WriteReg(R0, 0x0002B000)
T6954 001:401.810 - 0.018ms returns 0
T6954 001:401.824 JLINK_WriteReg(R1, 0x00001000)
T6954 001:401.836 - 0.017ms returns 0
T6954 001:401.850 JLINK_WriteReg(R2, 0x000000FF)
T6954 001:401.861 - 0.016ms returns 0
T6954 001:401.887 JLINK_WriteReg(R3, 0x00000000)
T6954 001:401.901 - 0.034ms returns 0
T6954 001:401.928 JLINK_WriteReg(R4, 0x00000000)
T6954 001:401.936 - 0.011ms returns 0
T6954 001:401.945 JLINK_WriteReg(R5, 0x00000000)
T6954 001:401.952 - 0.011ms returns 0
T6954 001:401.961 JLINK_WriteReg(R6, 0x00000000)
T6954 001:401.969 - 0.011ms returns 0
T6954 001:401.980 JLINK_WriteReg(R7, 0x00000000)
T6954 001:401.988 - 0.012ms returns 0
T6954 001:401.997 JLINK_WriteReg(R8, 0x00000000)
T6954 001:402.005 - 0.011ms returns 0
T6954 001:402.014 JLINK_WriteReg(R9, 0x200006F0)
T6954 001:402.024 - 0.013ms returns 0
T6954 001:402.033 JLINK_WriteReg(R10, 0x00000000)
T6954 001:402.041 - 0.011ms returns 0
T6954 001:402.063 JLINK_WriteReg(R11, 0x00000000)
T6954 001:402.070 - 0.010ms returns 0
T6954 001:402.079 JLINK_WriteReg(R12, 0x00000000)
T6954 001:402.086 - 0.010ms returns 0
T6954 001:402.095 JLINK_WriteReg(R13 (SP), 0x20002000)
T6954 001:402.103 - 0.011ms returns 0
T6954 001:402.111 JLINK_WriteReg(R14, 0x20000001)
T6954 001:402.132 - 0.024ms returns 0
T6954 001:402.142 JLINK_WriteReg(R15 (PC), 0x20000188)
T6954 001:402.152 - 0.026ms returns 0
T6954 001:402.175 JLINK_WriteReg(XPSR, 0x01000000)
T6954 001:402.196 - 0.024ms returns 0
T6954 001:402.205 JLINK_WriteReg(MSP, 0x20002000)
T6954 001:402.226 - 0.024ms returns 0
T6954 001:402.248 JLINK_WriteReg(PSP, 0x20002000)
T6954 001:402.256 - 0.011ms returns 0
T6954 001:402.265 JLINK_WriteReg(CFBP, 0x00000000)
T6954 001:402.273 - 0.011ms returns 0
T6954 001:402.282 JLINK_SetBPEx(Addr = 0x20000000, Type = 0xFFFFFFF2)
T6954 001:402.291 - 0.012ms returns 0x0000000D
T6954 001:402.300 JLINK_Go()
T6954 001:402.315   CPU_ReadMem(4 bytes @ 0xE0001000)
T6954 001:404.886 - 2.596ms
T6954 001:404.906 JLINK_IsHalted()
T6954 001:405.274 - 0.375ms returns FALSE
T6954 001:405.290 JLINK_HasError()
T6954 001:409.695 JLINK_IsHalted()
T6954 001:412.171   CPU_ReadMem(2 bytes @ 0x20000000)
T6954 001:412.647 - 2.959ms returns TRUE
T6954 001:412.662 JLINK_ReadReg(R15 (PC))
T6954 001:412.674 - 0.015ms returns 0x20000000
T6954 001:412.684 JLINK_ClrBPEx(BPHandle = 0x0000000D)
T6954 001:412.692 - 0.012ms returns 0x00
T6954 001:412.701 JLINK_ReadReg(R0)
T6954 001:412.709 - 0.011ms returns 0x00000000
T6954 001:413.284 JLINK_HasError()
T6954 001:413.298 JLINK_WriteReg(R0, 0x0002C000)
T6954 001:413.321 - 0.026ms returns 0
T6954 001:413.344 JLINK_WriteReg(R1, 0x00001000)
T6954 001:413.352 - 0.011ms returns 0
T6954 001:413.361 JLINK_WriteReg(R2, 0x000000FF)
T6954 001:413.368 - 0.011ms returns 0
T6954 001:413.377 JLINK_WriteReg(R3, 0x00000000)
T6954 001:413.398 - 0.024ms returns 0
T6954 001:413.420 JLINK_WriteReg(R4, 0x00000000)
T6954 001:413.428 - 0.011ms returns 0
T6954 001:413.441 JLINK_WriteReg(R5, 0x00000000)
T6954 001:413.465 - 0.027ms returns 0
T6954 001:413.473 JLINK_WriteReg(R6, 0x00000000)
T6954 001:413.481 - 0.010ms returns 0
T6954 001:413.489 JLINK_WriteReg(R7, 0x00000000)
T6954 001:413.497 - 0.010ms returns 0
T6954 001:413.505 JLINK_WriteReg(R8, 0x00000000)
T6954 001:413.512 - 0.010ms returns 0
T6954 001:413.521 JLINK_WriteReg(R9, 0x200006F0)
T6954 001:413.528 - 0.010ms returns 0
T6954 001:413.537 JLINK_WriteReg(R10, 0x00000000)
T6954 001:413.544 - 0.010ms returns 0
T6954 001:413.553 JLINK_WriteReg(R11, 0x00000000)
T6954 001:413.560 - 0.010ms returns 0
T6954 001:413.569 JLINK_WriteReg(R12, 0x00000000)
T6954 001:413.576 - 0.010ms returns 0
T6954 001:413.585 JLINK_WriteReg(R13 (SP), 0x20002000)
T6954 001:413.592 - 0.011ms returns 0
T6954 001:413.601 JLINK_WriteReg(R14, 0x20000001)
T6954 001:413.608 - 0.010ms returns 0
T6954 001:413.617 JLINK_WriteReg(R15 (PC), 0x20000344)
T6954 001:413.624 - 0.010ms returns 0
T6954 001:413.633 JLINK_WriteReg(XPSR, 0x01000000)
T6954 001:413.640 - 0.010ms returns 0
T6954 001:413.649 JLINK_WriteReg(MSP, 0x20002000)
T6954 001:413.656 - 0.010ms returns 0
T6954 001:413.666 JLINK_WriteReg(PSP, 0x20002000)
T6954 001:413.692 - 0.033ms returns 0
T6954 001:413.708 JLINK_WriteReg(CFBP, 0x00000000)
T6954 001:413.719 - 0.016ms returns 0
T6954 001:413.732 JLINK_SetBPEx(Addr = 0x20000000, Type = 0xFFFFFFF2)
T6954 001:413.753 - 0.029ms returns 0x0000000E
T6954 001:413.772 JLINK_Go()
T6954 001:413.797   CPU_ReadMem(4 bytes @ 0xE0001000)
T6954 001:416.308 - 2.544ms
T6954 001:416.324 JLINK_IsHalted()
T6954 001:418.723   CPU_ReadMem(2 bytes @ 0x20000000)
T6954 001:419.194 - 2.882ms returns TRUE
T6954 001:419.219 JLINK_ReadReg(R15 (PC))
T6954 001:419.234 - 0.020ms returns 0x20000000
T6954 001:419.248 JLINK_ClrBPEx(BPHandle = 0x0000000E)
T6954 001:419.264 - 0.020ms returns 0x00
T6954 001:419.276 JLINK_ReadReg(R0)
T6954 001:419.285 - 0.014ms returns 0x00000001
T6954 001:419.302 JLINK_HasError()
T6954 001:419.317 JLINK_WriteReg(R0, 0x0002C000)
T6954 001:419.331 - 0.019ms returns 0
T6954 001:419.346 JLINK_WriteReg(R1, 0x00001000)
T6954 001:419.362 - 0.020ms returns 0
T6954 001:419.372 JLINK_WriteReg(R2, 0x000000FF)
T6954 001:419.380 - 0.011ms returns 0
T6954 001:419.390 JLINK_WriteReg(R3, 0x00000000)
T6954 001:419.410 - 0.028ms returns 0
T6954 001:419.428 JLINK_WriteReg(R4, 0x00000000)
T6954 001:419.444 - 0.027ms returns 0
T6954 001:419.464 JLINK_WriteReg(R5, 0x00000000)
T6954 001:419.482 - 0.027ms returns 0
T6954 001:419.499 JLINK_WriteReg(R6, 0x00000000)
T6954 001:419.521 - 0.026ms returns 0
T6954 001:419.544 JLINK_WriteReg(R7, 0x00000000)
T6954 001:419.552 - 0.011ms returns 0
T6954 001:419.561 JLINK_WriteReg(R8, 0x00000000)
T6954 001:419.577 - 0.021ms returns 0
T6954 001:419.594 JLINK_WriteReg(R9, 0x200006F0)
T6954 001:419.604 - 0.013ms returns 0
T6954 001:419.613 JLINK_WriteReg(R10, 0x00000000)
T6954 001:419.620 - 0.011ms returns 0
T6954 001:419.629 JLINK_WriteReg(R11, 0x00000000)
T6954 001:419.637 - 0.011ms returns 0
T6954 001:419.648 JLINK_WriteReg(R12, 0x00000000)
T6954 001:419.669 - 0.028ms returns 0
T6954 001:419.689 JLINK_WriteReg(R13 (SP), 0x20002000)
T6954 001:419.705 - 0.021ms returns 0
T6954 001:419.719 JLINK_WriteReg(R14, 0x20000001)
T6954 001:419.729 - 0.017ms returns 0
T6954 001:419.752 JLINK_WriteReg(R15 (PC), 0x20000188)
T6954 001:419.769 - 0.023ms returns 0
T6954 001:419.786 JLINK_WriteReg(XPSR, 0x01000000)
T6954 001:419.799 - 0.018ms returns 0
T6954 001:419.816 JLINK_WriteReg(MSP, 0x20002000)
T6954 001:419.829 - 0.017ms returns 0
T6954 001:419.847 JLINK_WriteReg(PSP, 0x20002000)
T6954 001:419.887 - 0.045ms returns 0
T6954 001:419.904 JLINK_WriteReg(CFBP, 0x00000000)
T6954 001:419.915 - 0.014ms returns 0
T6954 001:419.927 JLINK_SetBPEx(Addr = 0x20000000, Type = 0xFFFFFFF2)
T6954 001:419.944 - 0.023ms returns 0x0000000F
T6954 001:419.962 JLINK_Go()
T6954 001:419.984   CPU_ReadMem(4 bytes @ 0xE0001000)
T6954 001:422.602 - 2.652ms
T6954 001:422.625 JLINK_IsHalted()
T6954 001:422.962 - 0.344ms returns FALSE
T6954 001:422.979 JLINK_HasError()
T6954 001:424.644 JLINK_IsHalted()
T6954 001:427.114   CPU_ReadMem(2 bytes @ 0x20000000)
T6954 001:427.576 - 2.940ms returns TRUE
T6954 001:427.593 JLINK_ReadReg(R15 (PC))
T6954 001:427.604 - 0.014ms returns 0x20000000
T6954 001:427.614 JLINK_ClrBPEx(BPHandle = 0x0000000F)
T6954 001:427.622 - 0.013ms returns 0x00
T6954 001:427.634 JLINK_ReadReg(R0)
T6954 001:427.642 - 0.012ms returns 0x00000000
T6954 001:428.317 JLINK_HasError()
T6954 001:428.332 JLINK_WriteReg(R0, 0x0002D000)
T6954 001:428.342 - 0.014ms returns 0
T6954 001:428.352 JLINK_WriteReg(R1, 0x00001000)
T6954 001:428.359 - 0.011ms returns 0
T6954 001:428.382 JLINK_WriteReg(R2, 0x000000FF)
T6954 001:428.403 - 0.024ms returns 0
T6954 001:428.412 JLINK_WriteReg(R3, 0x00000000)
T6954 001:428.420 - 0.024ms returns 0
T6954 001:428.442 JLINK_WriteReg(R4, 0x00000000)
T6954 001:428.449 - 0.010ms returns 0
T6954 001:428.458 JLINK_WriteReg(R5, 0x00000000)
T6954 001:428.465 - 0.010ms returns 0
T6954 001:428.487 JLINK_WriteReg(R6, 0x00000000)
T6954 001:428.495 - 0.011ms returns 0
T6954 001:428.504 JLINK_WriteReg(R7, 0x00000000)
T6954 001:428.524 - 0.024ms returns 0
T6954 001:428.533 JLINK_WriteReg(R8, 0x00000000)
T6954 001:428.541 - 0.024ms returns 0
T6954 001:428.563 JLINK_WriteReg(R9, 0x200006F0)
T6954 001:428.570 - 0.011ms returns 0
T6954 001:428.579 JLINK_WriteReg(R10, 0x00000000)
T6954 001:428.587 - 0.011ms returns 0
T6954 001:428.596 JLINK_WriteReg(R11, 0x00000000)
T6954 001:428.603 - 0.011ms returns 0
T6954 001:428.612 JLINK_WriteReg(R12, 0x00000000)
T6954 001:428.619 - 0.028ms returns 0
T6954 001:428.646 JLINK_WriteReg(R13 (SP), 0x20002000)
T6954 001:428.673 - 0.030ms returns 0
T6954 001:428.682 JLINK_WriteReg(R14, 0x20000001)
T6954 001:428.689 - 0.011ms returns 0
T6954 001:428.698 JLINK_WriteReg(R15 (PC), 0x20000344)
